#  HZ   S   RI   R     50.00 
! Rohde & Schwarz Vector Network Analyzer 
! Rohde-Schwarz,ZNLE18-2Port,1323001270101281,1.61.1.0-22.05.1.79
! Created: UTC 6/27/2023, 12:04:15 PM
! freq[Hz]                re:S11                  im:S11                  re:S21                  im:S21                  re:S12                  im:S12                  re:S22                  im:S22
 1.000000000000000E9    -5.244336925442896E-1    6.692202648173788E-1   -9.376230595234185E-5    1.292786027275956E-4   -1.153838668984536E-4    1.540812232236845E-4    1.000094964002100      -5.385455882070588E-2
 1.121212121212121E9     4.258626322353822E-1    6.039905564082515E-1   -1.557859814840731E-4    3.503277221462981E-5   -1.899110526658163E-4    3.609182716151600E-5    9.998512860992289E-1   -6.329598054713882E-2
 1.242424242424242E9     5.721236217814503E-1   -5.673519009934158E-2   -4.749541321767466E-5   -6.353541673083114E-5   -5.776849248208780E-5   -9.111047553837886E-5    1.000399045468009      -6.778073728162215E-2
 1.363636363636364E9     2.795607577778963E-1   -4.845201140781834E-1   -1.808696075720110E-6   -1.202951872449597E-4    1.116614933591277E-5   -1.416412606697901E-4    1.000094717723864      -7.753339209153995E-2
 1.484848484848485E9    -4.063006213487106E-1   -5.008905000597834E-1   -4.152254155946183E-5    4.100455675609262E-5   -5.181527181622725E-5    5.209957268464260E-5    9.986825933359857E-1   -8.412222230548998E-2
 1.606060606060606E9    -5.858985764283005E-1    3.005193979440658E-1   -5.443461825245308E-5    1.131336864453373E-4   -7.190802041996375E-5    1.395014221985260E-4    9.985441224432777E-1   -8.983831284092754E-2
 1.727272727272727E9     9.564788595459084E-2    5.292679618690617E-1   -1.806469894424793E-5    7.632414490350198E-5   -3.416976133349685E-5    9.726676585431460E-5    9.971160599186482E-1   -9.744634253593930E-2
 1.848484848484848E9     4.693216590372466E-1    2.276525005240981E-1   -5.437821549841544E-6   -1.169864318637785E-4   -1.716749822015738E-5   -1.514253677900375E-4    9.979406704910725E-1   -1.019829936538926E-1
 1.969696969696970E9     4.152644573843109E-1   -5.970916075951452E-1   -3.435826175825557E-7   -7.433539233292095E-5   -5.633313134236206E-6   -9.533354192934729E-5    9.989841994709522E-1   -1.072794047310028E-1
 2.090909090909091E9     5.628870963482517E-2    1.969687587432264E-1   -9.245811272780554E-5    4.859629892501397E-5   -1.034898967880747E-4    4.942635308730612E-5    9.978673819255017E-1   -1.165356263369522E-1
 2.212121212121212E9    -2.056434594364985E-1   -5.701599020970186E-1   -7.721256874812499E-5    6.488634064089630E-5   -8.183538433021879E-5    1.010433207062136E-4    9.995035280968702E-1   -1.195919821416496E-1
 2.333333333333333E9    -6.310574659273078E-1    4.178456274346407E-1    1.162980909897382E-5    6.705440393003532E-6   -9.599288445195423E-6    4.820128970223506E-6    9.974610208980715E-1   -1.289860482442987E-1
 2.454545454545455E9     3.890566760813196E-1    6.660114885894396E-1    6.046268524435789E-5   -4.872205647594114E-5    6.441799373072919E-5   -7.367650107023406E-5    9.978306884023341E-1   -1.350570111037427E-1
 2.575757575757576E9     7.309052525167961E-1   -5.476207000226609E-2    4.511220074468501E-6   -6.671171028004681E-5   -9.048115564303283E-6   -8.756376841332607E-5    9.955334783861081E-1   -1.422963890235991E-1
 2.696969696969697E9     3.226171906125209E-1   -6.736156093167670E-1   -8.185362209796563E-5   -1.502749383089422E-5   -1.070667282983395E-4    1.400954620112396E-5    9.916479482398508E-1   -1.484736724507244E-1
 2.818181818181818E9    -5.951234876552600E-1   -4.987059100449835E-1   -4.849279850960442E-5    6.543704906110384E-5   -4.388481301916953E-5    8.113349426069957E-5    9.940689225993043E-1   -1.494095444331530E-1
 2.939393939393939E9    -5.406886206174916E-1    5.551154171019850E-1    5.225085935951086E-5    5.873309215289569E-5    7.588428566243607E-5    5.210368701037983E-5    9.906350195271311E-1   -1.589430278829175E-1
 3.060606060606061E9     4.687961670059348E-1    5.722506535747177E-1    4.239132364177607E-5   -5.037552786337263E-5    2.457938421225918E-5   -7.534597326710168E-5    9.923778307978784E-1   -1.632398912536837E-1
 3.181818181818182E9     6.437153913628296E-1   -2.135687127901473E-1   -7.539360765913215E-5   -3.016624604078151E-5   -8.117490937801749E-5    6.673334316565464E-6    9.941909992951024E-1   -1.678572679443099E-1
 3.303030303030303E9     1.540761053053669E-1   -5.774936704989247E-1    5.952911356218424E-5    5.864142796203773E-5    7.694061860523635E-5    5.269294988784873E-5    9.906730591151357E-1   -1.795238256885512E-1
 3.424242424242424E9    -3.479219872038086E-1   -3.939351530722522E-1    5.565285355259171E-5   -1.419842863953171E-4    7.321273979253291E-5   -1.795445227512039E-4    9.960987016855265E-1   -1.836092259849413E-1
 3.545454545454545E9    -4.266045982021948E-1    1.463569350439582E-1   -2.320831091087669E-4   -2.314415036248745E-5   -2.783452013105956E-4    2.735095450698125E-5    9.857580476479525E-1   -1.956100187626155E-1
 3.666666666666667E9     1.071241009454611E-1    3.313166769644423E-1    8.106950186076384E-5    3.865172937767074E-4    1.156646300863353E-4    4.165290187351157E-4    9.845257474937779E-1   -1.967699359820449E-1
 3.787878787878788E9     1.679080365697606E-1   -7.991483050544072E-2    4.721529412445533E-4   -2.161300449214467E-4    4.873256893587576E-4   -2.606340888694215E-4    9.836370085552182E-1   -2.017334509872005E-1
 3.909090909090909E9     2.720589236836632E-1   -1.706723831761583E-2   -4.751102343599177E-4   -4.828692662210369E-4   -4.955227027164991E-4   -4.715092765522477E-4    9.760136050211267E-1   -2.063236117738243E-1
 4.030303030303030E9     2.715856147237051E-2   -6.567631136845663E-1   -1.892534048332737E-4    5.237361844697044E-4   -2.085988618083627E-4    5.356874175400483E-4    9.872034957464837E-1   -2.086799471445861E-1
 4.151515151515152E9    -6.887865734504452E-1   -2.734048011553546E-1    3.940861628731979E-4    6.192028310796402E-5    3.642190139466440E-4    6.518187467363950E-5    9.764251801817844E-1   -2.158733024934366E-1
 4.272727272727273E9    -5.439039234159219E-1    4.132663936029594E-1    7.241010748385665E-5   -2.361211641289814E-4    9.802451570197401E-5   -2.286346747557568E-4    9.819630237215955E-1   -2.212590833258859E-1
 4.393939393939394E9     9.094393455837765E-2    5.893658819962031E-1   -1.296956005039024E-4   -8.817837735344616E-5   -1.072086658920582E-4   -1.066947649921527E-4    9.854934855022484E-1   -2.292478573648916E-1
 4.515151515151516E9     5.800008916113072E-1   -5.468869396690297E-2    4.050142226126374E-5   -1.376285935920690E-4    8.704357180869463E-5    1.608092831306279E-5    9.719605412291052E-1   -2.352297056710746E-1
 4.636363636363636E9    -7.548498986081607E-2   -6.552210216246735E-1   -1.032878955379701E-4    1.409325489847731E-5    3.149339833803986E-5    5.504238121161963E-5    9.835803070665725E-1   -2.473399782163614E-1
 4.757575757575758E9    -7.265992852647782E-1   -1.762560346646280E-1    4.770038895358238E-6    5.980335922970492E-5    1.623256830712838E-4    2.233520991512180E-5    9.625856483912160E-1   -2.489414763720508E-1
 4.878787878787879E9    -6.195671235956697E-1    5.084424375035974E-1    6.014704413333948E-5   -8.889567516720689E-6    6.332151461392503E-6   -1.518534967713545E-4    9.662109568909336E-1   -2.511006706281456E-1
 5.000000000000000E9    -1.118040621493924E-2    8.316836685831223E-1   -8.828421145160814E-6   -6.413261603558667E-5   -1.183573644821663E-4   -8.498570809669125E-5    9.693652435583678E-1   -2.560992756031971E-1
 5.121212121212122E9     7.359775634411487E-1    3.166377491264247E-1   -4.681279668628024E-5    2.696573959670878E-5   -1.218341599323118E-4    1.029741619505616E-4    9.568882225433546E-1   -2.516341927340210E-1
 5.242424242424242E9     2.334195873092189E-1   -6.876981615104389E-1    8.618891265184968E-5    1.168591434552947E-5    1.078045964947433E-4    1.436084584101069E-4    9.711435029345329E-1   -2.679756867063045E-1
 5.363636363636364E9    -7.283096714987283E-1   -1.640957497438771E-1   -2.523980446345570E-5   -7.195582063177541E-5    1.248290210179919E-4   -8.236394516076257E-5    9.605685488083160E-1   -2.607157976385506E-1
 5.484848484848485E9    -4.697252713583079E-1    6.540791048198629E-1   -6.427442821252531E-5    2.656825855370922E-5   -3.440858524364641E-5   -7.073450673755474E-5    9.681146565520996E-1   -2.722455519673688E-1
 5.606060606060606E9     1.999332650804912E-1    8.300661219638843E-1   -1.940761695853157E-5    3.739437582906708E-5   -2.968195113151110E-5    3.952422291667891E-5    9.676965662444070E-1   -2.901504725227985E-1
 5.727272727272728E9     7.895391056352695E-1    3.475205983796989E-1    2.520414252627346E-5    9.504871605012521E-5    6.815774974570774E-5    4.297617036872626E-6    9.598690263384244E-1   -2.803813091525261E-1
 5.848484848484849E9     5.265288855155686E-1   -5.675690811125765E-1    1.561978799892045E-4   -6.599652471146270E-5    8.269832357891037E-6   -9.232499365406270E-5    9.617967025221212E-1   -3.051077130437337E-1
 5.969696969696970E9    -4.954793197885647E-1   -3.294778200809507E-1   -9.238875961016895E-5   -1.528898487144554E-4   -5.897148046212499E-5   -2.650407787112317E-5    9.604364000882573E-1   -2.957122871368344E-1
 6.090909090909091E9    -2.250626921505028E-1    5.362759178344113E-1   -9.087993844035224E-5    3.219160967657815E-5   -1.402706424338164E-5    1.944630145565132E-5    9.605712969088844E-1   -3.036339465714672E-1
 6.212121212121212E9     4.477919926925654E-1    4.793038177519739E-1    3.914638696033310E-5    9.080983250298584E-5   -3.850650792756962E-5    4.279458704394581E-5    9.540995365237657E-1   -3.184811123042816E-1
 6.333333333333334E9     7.264403875417283E-1   -6.533701904505600E-2    7.776280802918241E-5    2.196346239470839E-5    5.461028052747850E-5    3.406016973523868E-5    9.612710181973130E-1   -3.116995553051596E-1
 6.454545454545455E9     3.761396656879928E-1   -6.421070454002631E-1    4.680476991523321E-5   -6.963156066077808E-5    5.225819626908100E-5   -3.001656451791646E-5    9.483556158671056E-1   -3.378508870057120E-1
 6.575757575757576E9    -3.357586533745647E-1   -5.926892686287558E-1   -8.894385180785413E-5   -7.084078941007499E-5   -4.497213850745635E-5   -6.964339446126378E-5    9.542067658983400E-1   -3.321944429644980E-1
 6.696969696969697E9    -4.074205255237655E-1   -1.096848789733901E-1    1.226487296421657E-5    1.257844406839879E-4    2.534375112687805E-6    4.736434557649529E-5    9.515358933022703E-1   -3.441453420912040E-1
 6.818181818181818E9    -4.488905647076609E-1    1.123247779081750E-1    4.708650646399513E-5   -4.648683560823907E-5    6.495982320451033E-6   -9.111079226755535E-6    9.409422210803433E-1   -3.556771510455610E-1
 6.939393939393940E9    -2.142053348720223E-1    4.350607453193494E-1   -5.279217315546531E-5    3.500583254071211E-5   -3.139085844354325E-6    5.994943043448024E-5    9.508437166333484E-1   -3.600458882974727E-1
 7.060606060606061E9     2.034111418975294E-1    4.048077153029617E-1    7.164866720944190E-5    1.805460005964285E-5    6.501740999927699E-5    1.415250317467639E-5    9.339056061297399E-1   -3.726755930241752E-1
 7.181818181818182E9     3.454617231307478E-1   -3.976738047985317E-2   -7.057730464880197E-6   -4.161641066240809E-5    6.828469980359696E-5    1.353201083198615E-5    9.385257526632301E-1   -3.775545941996503E-1
 7.303030303030303E9    -2.507400079531378E-1   -1.586958323882254E-1    7.989930802542234E-5    3.334183237022645E-5    4.596844166668612E-5   -1.530995843793418E-4    9.339698290845134E-1   -3.866180651374705E-1
 7.424242424242425E9    -1.476154353342687E-1    5.269162435624762E-1   -5.170303889015557E-5   -4.736802396127946E-5   -1.381702149119773E-4    3.327395357323268E-5    9.249442262218197E-1   -3.921095270566482E-1
 7.545454545454546E9     4.649430751819891E-1    4.341915003805066E-1    5.775300214023023E-6    3.412651844912318E-5    6.673814884971921E-5    1.560470820140475E-4    9.293317451210156E-1   -4.027707597769814E-1
 7.666666666666667E9     5.581816094390283E-1   -4.415469612182809E-2    1.126338317135821E-5    6.301799942357302E-5    1.391465075947342E-4    6.122063279744167E-5    9.177293298495238E-1   -4.075142323081281E-1
 7.787878787878788E9     3.640061429109756E-1   -2.810635411411918E-1    1.155618314293530E-4    4.431374801514967E-5    8.439172887435996E-5   -1.467905739174432E-4    9.173608060618649E-1   -4.167874091058577E-1
 7.909090909090909E9     1.202485720014892E-1   -4.360261693680385E-1    6.693034636524718E-5   -1.021995789744530E-4   -1.614261064677948E-4   -6.229087538370879E-5    9.133824221290052E-1   -4.240244998282481E-1
 8.030303030303031E9    -2.904469591603326E-1   -2.169929789381104E-1   -1.452329381087254E-4   -1.445706779100438E-4   -2.411236080375839E-5    1.546383788917293E-4    9.059684542519734E-1   -4.306671904463399E-1
 8.151515151515152E9    -7.619292476060761E-2    3.016129297075522E-1   -1.002621840769721E-4    1.946085865942523E-4    1.382998802330892E-4    8.734063892316132E-6    9.056218568237919E-1   -4.413573014375611E-1
 8.272727272727273E9     4.686275714281001E-1    6.502173054926393E-2    2.126345489107537E-4    1.408382155012002E-5    3.515456939378680E-5   -1.413741591273825E-4    8.980672644711921E-1   -4.464233619475670E-1
 8.393939393939394E9     3.143615338357232E-1   -4.975753590112521E-1    4.932432036798533E-5   -1.347186141255091E-4   -1.156852072636594E-4   -2.086841046801640E-5    8.951030502995229E-1   -4.550842712085433E-1
 8.515151515151516E9    -2.538982540928045E-1   -5.323786911797987E-1   -7.228540065183367E-5   -8.733461914732698E-5    7.492859667079588E-6    6.172392842550296E-5    8.904415527233013E-1   -4.638239970533788E-1
 8.636363636363636E9    -4.414589247391777E-1   -5.510764892439366E-2   -1.216505804891673E-4    6.415852131412889E-5    3.473532542348814E-5    6.305258395467244E-6    8.851880143632128E-1   -4.699383452655004E-1
 8.757575757575758E9    -1.854386393175781E-1    1.511472103739536E-1    4.871966364610821E-5    1.620912999624685E-4    4.667356905042545E-5   -3.557105881792233E-5    8.823193141484971E-1   -4.802682784641765E-1
 8.878787878787880E9    -4.696290366519729E-2    1.860675537645418E-1    2.135638585475314E-4   -1.630320089573428E-4   -1.495629514973831E-5   -6.482593614834568E-5    8.763149682291400E-1   -4.870988251351552E-1
 9.000000000000000E9     2.467184994445491E-1    6.416466868487992E-2   -1.681008908234149E-4   -1.077440930858223E-4   -7.421936191895757E-5    1.633907710731687E-5    8.712663797750512E-1   -4.968497556034189E-1
 9.121212121212122E9     6.334868230201342E-2   -3.880682556945687E-1   -1.208587697778361E-4    1.329006284562466E-4    5.477537781642549E-5    1.254522730810944E-4    8.663944614626126E-1   -5.050237595963004E-1
 9.242424242424244E9    -4.555547209300470E-1   -2.037595903525539E-1    1.782160985143253E-4    1.600408135059927E-4    1.467189168816701E-4   -6.909163414902795E-5    8.613924383402247E-1   -5.121027339815793E-1
 9.363636363636364E9    -4.095054519876335E-1    3.404378258213564E-1    1.240589519870828E-4   -1.152068501346779E-4   -1.302524810271775E-5   -1.141685622922371E-4    8.571756718610418E-1   -5.217195126260787E-1
 9.484848484848484E9     1.137619371390477E-1    4.960388563646885E-1   -3.042793332807598E-5   -1.178666720503880E-4   -4.861959001318867E-5    2.353653817157007E-5    8.514196586845889E-1   -5.298753269331071E-1
 9.606060606060606E9     4.171584155290755E-1    6.000448870435076E-2   -1.191519765421886E-4   -1.404788283961611E-4    9.529552082087441E-5   -7.011974836578592E-5    8.465563823221079E-1   -5.381042309773033E-1
 9.727272727272728E9     1.081275574060524E-1   -2.648492114159001E-1   -2.134769049153940E-4    1.402882436299742E-4   -1.333499687551822E-4   -8.455783146746699E-5    8.401321130671724E-1   -5.476684170039509E-1
 9.848484848484848E9    -1.343219815817600E-1   -1.417282988377880E-1    3.219857403534607E-4    1.829393908603870E-4    4.319432291802533E-5    9.956464361094730E-5    8.352267474994401E-1   -5.554183238168450E-1
 9.969696969696970E9    -2.394429358051012E-1    5.144195020655278E-2    3.060634064407627E-4   -4.141354674187585E-4    1.995222476797423E-4   -1.304779797104891E-4    8.297544262252953E-1   -5.645564653615592E-1
 1.009090909090909E+10  -7.102021373379865E-2    3.404159850162609E-1   -3.800823227437477E-4   -2.924229612289932E-4   -1.351409205525426E-4   -2.717334988298575E-4    8.242805407227131E-1   -5.735144709736432E-1
 1.021212121212121E+10   3.476471541517248E-1    2.449469448421301E-1   -2.499454032176703E-4    2.078015636679609E-4   -2.089523239727583E-4   -1.060275527960554E-5    8.184927650262370E-1   -5.828624318917924E-1
 1.033333333333333E+10   3.949077548875000E-1   -2.583471086990396E-1    8.308082871240446E-5    1.784612638003724E-4   -7.843212576951213E-5    1.702312611772602E-4    8.128010365569138E-1   -5.900801862061746E-1
 1.045454545454546E+10  -1.224352702906114E-1   -4.625671909193358E-1    2.333599344712329E-4   -4.216110981228088E-5    1.299467480475026E-4    5.114677689199047E-5    8.067500632100976E-1   -6.001401330201241E-1
 1.057575757575758E+10  -4.356661941700889E-1   -1.212630293971961E-2   -1.473150667589108E-5   -2.079052063655886E-4    7.869777270650308E-5   -1.305717298967594E-4    7.991448519959196E-1   -6.075964901495937E-1
 1.069696969696970E+10  -1.015859089907921E-1    3.148978501384371E-1   -1.695943051121137E-4   -1.428712692332664E-4   -7.051338066260454E-5   -1.909943796852758E-4    7.948914559734536E-1   -6.170420048215172E-1
 1.081818181818182E+10   1.529516510627965E-1    1.355562661872762E-1   -1.926301431039003E-4    1.650787040271127E-4   -2.357590371794408E-4    1.355143180146637E-5    7.885234738328126E-1   -6.246589184515169E-1
 1.093939393939394E+10   1.588644692248529E-1   -2.217503945397031E-2    1.281586483503477E-4    1.092691573255539E-4   -4.181538193333682E-5    1.736397693868705E-4    7.839644008556834E-1   -6.297932813175915E-1
 1.106060606060606E+10   5.984673886858164E-2   -2.412945843758472E-1   -3.857038650025055E-6   -6.876969207102213E-5    1.095925039102545E-4   -2.593164937661037E-5    7.774046223927998E-1   -6.450875399753775E-1
 1.118181818181818E+10  -3.322332729606953E-1   -1.828174227565258E-1   -7.022459809722845E-6    2.733913589737473E-5    4.065720415831248E-5   -4.431363729605816E-5    7.755171220644321E-1   -6.469144648293612E-1
 1.130303030303030E+10  -3.673846476112645E-1    2.802956864379640E-1   -4.626068304969034E-5   -1.960656064711419E-4    2.371543460627385E-6   -1.888736297739628E-4    7.660525601733135E-1   -6.633673789432087E-1
 1.142424242424242E+10   6.643053029117919E-2    4.400829093752746E-1   -2.210373435694769E-4    6.421078311781637E-5   -2.212361648229994E-4   -1.295279555344049E-4    7.606788910648750E-1   -6.709286822196421E-1
 1.154545454545455E+10   2.869138900135695E-1    1.399981242700401E-1   -5.303102577803911E-5    1.620394459227591E-4   -1.996015143543179E-4    1.832946792005172E-4    7.575100860899142E-1   -6.826428967726482E-1
 1.166666666666667E+10   2.089157332279530E-1   -9.053920899120259E-2    1.166058799058664E-4    2.518561576760838E-5    1.476857160685131E-4    1.851721241965429E-4    7.442813118731640E-1   -6.917128653236351E-1
 1.178787878787879E+10  -7.794954675422416E-2   -2.227069301905023E-1    8.255159834476873E-5   -3.109519792564529E-5    7.847798417409992E-5   -1.615563086879305E-4    7.418807408861093E-1   -7.022094579867836E-1
 1.190909090909091E+10  -3.013227293353102E-1    1.133177367346336E-1   -3.964418884154554E-5   -7.866445032309562E-5   -1.068873181525167E-4   -5.360709721705053E-6    7.311039397967218E-1   -7.111893564812446E-1
