#  HZ   S   RI   R     50.00 
! Rohde & Schwarz Vector Network Analyzer 
! Rohde-Schwarz,ZNLE18-2Port,1323001270101281,1.61.1.0-22.05.1.79
! Created: UTC 6/27/2023, 12:01:30 PM
! freq[Hz]                re:S11                  im:S11                  re:S21                  im:S21                  re:S12                  im:S12                  re:S22                  im:S22
 1.000000000000000E9    -4.629086358227982E-1   -8.407147190052326E-1   -1.000926644218336E-5   -8.657677399071032E-6   -1.998252413990728E-5   -3.895665421112568E-6    1.000395096735640      -5.451386826451386E-2
 1.121212121212121E9    -8.850534037228774E-1   -3.628429755673590E-1   -1.491476849576856E-6   -6.473607356970136E-6    8.827188411207177E-6    1.088460890711333E-5    9.998702930041988E-1   -6.379213245193571E-2
 1.242424242424242E9    -8.907608719159421E-1    3.378689257983164E-1    1.218482747493368E-6   -2.179858631287318E-6   -1.240404006745296E-5    3.969167647389490E-6    9.998459259513750E-1   -6.752457510185990E-2
 1.363636363636364E9    -3.682145236744323E-1    8.731125016351848E-1    3.846804150719984E-6   -8.209441393712293E-6    8.985008976135722E-6   -2.350085247386093E-6    9.994190201045217E-1   -7.815262415119449E-2
 1.484848484848485E9     3.891410159986494E-1    8.569602660529682E-1    2.057816132005426E-6    7.688158053784585E-6   -8.532237428663431E-6    5.057537767676370E-6    9.978732502314998E-1   -8.473051023879066E-2
 1.606060606060606E9     8.778775122011105E-1    3.226156586649460E-1   -3.375966596063174E-6   -4.069952879173968E-6   -6.415107183026303E-6   -5.346041103744981E-6    9.977737289846853E-1   -9.060531156835282E-2
 1.727272727272727E9     8.623033361687746E-1   -3.468979483288664E-1   -7.968814614808659E-6   -9.859860439364205E-6   -7.928287187341880E-6   -2.903192016128528E-5    9.965474070216331E-1   -9.811489156658355E-2
 1.848484848484848E9     4.501247591191158E-1   -8.081157168601962E-1   -5.934718296049752E-8    7.987775210081259E-6    1.329977989215444E-5    8.922581627397676E-6    9.978661690336957E-1   -1.016716133641082E-1
 1.969696969696970E9    -1.245634072087296E-1   -9.124548075543584E-1    7.352871549811970E-6   -2.974546266575907E-6   -1.469589553283941E-5    9.095706809372109E-6    9.986770308421619E-1   -1.080642188532502E-1
 2.090909090909091E9    -6.391061754024666E-1   -6.453951789245296E-1   -1.176974521015640E-5    7.945121076399990E-6    1.221485573775880E-5    2.599149398404300E-6    9.975263610726809E-1   -1.174199285900094E-1
 2.212121212121212E9    -8.626975588749448E-1   -6.372372825999226E-2    1.657611378317820E-5    4.578051084084669E-5    1.676248549384371E-5    5.029694511363800E-5    9.990917028053462E-1   -1.204736981677167E-1
 2.333333333333333E9    -2.709983423628693E-1    3.227642845780101E-1    8.871204936653531E-6   -1.724539991190607E-5   -5.944093660782026E-6   -3.556887530989772E-5    9.968632452861894E-1   -1.298652414787092E-1
 2.454545454545455E9    -6.712655618934910E-1    3.400971028223367E-1   -4.611865241194059E-5   -2.109881689667076E-5   -5.532224362719688E-5   -1.235138055933996E-5    9.970487864474956E-1   -1.362086078958361E-1
 2.575757575757576E9    -1.782245111228804E-1    8.288216877915380E-1   -2.867319315232200E-5    4.211178581113347E-6   -1.731928899705571E-5    8.384301548884358E-6    9.946898519856125E-1   -1.433259122843820E-1
 2.696969696969697E9     5.026051462626248E-1    6.901586006310803E-1   -1.356868778473938E-5    2.094222225603247E-5   -2.609642929927160E-5    3.920443253428705E-5    9.907409464483651E-1   -1.495660874670446E-1
 2.818181818181818E9     8.421820789506503E-1    4.382043605680705E-2    2.525635943790301E-5    4.974048553258550E-5    1.660777198011539E-5    5.786679538118411E-5    9.933060352423899E-1   -1.503637766930073E-1
 2.939393939393939E9     5.345485098664116E-1   -6.382885002933973E-1    5.759135765898707E-5    1.411137843680334E-5    5.135327253271956E-5    4.233166808950374E-6    9.901457418144132E-1   -1.598825054166480E-1
 3.060606060606061E9    -1.734370603067772E-1   -8.093288761110813E-1    1.896481832419047E-5   -4.067866897561315E-5    3.844247633199934E-5   -4.719169745753843E-5    9.920139152350193E-1   -1.640343664354456E-1
 3.181818181818182E9    -7.200312218310685E-1   -3.902051256616234E-1   -3.372121616002036E-5   -5.566282049055767E-5   -2.885764799933914E-5   -5.840294264449359E-5    9.938748738904492E-1   -1.686964110676807E-1
 3.303030303030303E9    -6.725662266426045E-1    3.008033175647650E-1   -9.306682154197024E-5   -1.988693382623953E-5   -9.816857883278213E-5   -1.470810166543969E-5    9.900966270535786E-1   -1.804932992875023E-1
 3.424242424242424E9    -1.756703317956626E-1   -3.034323216358821E-2   -4.954073847686317E-6    6.679825731026343E-5    8.709028554334979E-6    7.144998368562063E-5    9.953136243876626E-1   -1.847735877987908E-1
 3.545454545454545E9    -5.963783531831657E-1    4.907690615053169E-1    8.370717426866019E-6    5.077192413733840E-5    1.967254305542231E-5    3.621833413737040E-5    9.845980411825045E-1   -1.968669438561076E-1
 3.666666666666667E9    -1.222305591511074E-1    8.306668781260887E-1    5.945856687260405E-5    2.363121533610198E-5    5.248018912488973E-5    4.564165608760446E-5    9.833319085956389E-1   -1.977443886012354E-1
 3.787878787878788E9     4.092736116239318E-1    7.359373477437210E-1   -8.466626601514715E-7   -3.620367906220210E-5    2.479883458096457E-6   -6.474213748165399E-5    9.825846200023768E-1   -2.023782638350280E-1
 3.909090909090909E9     7.630736168948408E-1    2.959983322196316E-1    1.655820759335423E-5    5.414495847558280E-6    1.518621373905922E-5    1.179764055607415E-5    9.752086303849919E-1   -2.067533982212386E-1
 4.030303030303030E9     6.849348230436852E-1   -3.429158493758838E-1    3.794361109006954E-5   -5.340351948807624E-5    2.005197024543026E-5    1.739430610017787E-6    9.866393110949232E-1   -2.090814204964831E-1
 4.151515151515152E9    -6.237664175833186E-3   -6.582511693853915E-1   -4.885183737614340E-5   -6.647862594731020E-6   -5.290422031518600E-5   -4.523299820624976E-5    9.759094916710225E-1   -2.162033575059445E-1
 4.272727272727273E9    -2.362607938007608E-1   -1.914207906037550E-2   -2.078128051675823E-5    6.664415709193833E-5    1.639687687436294E-5    8.457107941969715E-5    9.814214616647610E-1   -2.216007865174741E-1
 4.393939393939394E9    -4.995439497468258E-1   -2.381378648160207E-1    6.616715005709223E-5   -3.634988625564960E-5    3.660311823513430E-5   -5.809244200434430E-5    9.849637815742357E-1   -2.295737323407821E-1
 4.515151515151516E9    -4.913334980356981E-1    4.250183380999918E-1   -6.758629689404941E-5   -4.242310407622852E-5   -5.056496566439374E-5   -3.086421206297841E-5    9.715491297109796E-1   -2.358107424618898E-1
 4.636363636363636E9    -2.165969998954521E-1    5.786584403084827E-1   -7.695008923520630E-5    6.088217566925690E-5   -9.993783442322101E-5    3.117617768096471E-5    9.829515210582863E-1   -2.480072618447896E-1
 4.757575757575758E9     1.640181323334031E-1    7.646490578883739E-1    2.281101749645782E-5    1.095305494062552E-5    1.884466672367216E-5    2.681054434474276E-5    9.617074557446013E-1   -2.495681925332683E-1
 4.878787878787879E9     5.865575479806542E-1    5.881899427453626E-1    3.117174865864990E-5    5.171249558022241E-6    1.562206026913307E-5    4.082599612501648E-6    9.656289602439673E-1   -2.512932540332961E-1
 5.000000000000000E9     8.120760859779526E-1    2.003273756099078E-1    2.050074099360520E-5    2.843315460566395E-7    1.694139769938788E-5    1.451657186694319E-5    9.690947812424477E-1   -2.561036665727496E-1
 5.121212121212122E9     7.710878261906635E-1   -2.681324247184885E-1    2.358208867585483E-5    7.702428384885479E-6    9.557217351449251E-6   -2.896909028254533E-6    9.569113111084719E-1   -2.513973458281951E-1
 5.242424242424242E9     4.080703206568470E-1   -6.526934040385783E-1   -1.772173942379832E-5    1.306307520719328E-5   -5.474561663583394E-6    1.274973661746642E-5    9.715487897112517E-1   -2.681449082867186E-1
 5.363636363636364E9    -2.187974476911819E-1   -6.533057677870757E-1    1.823380790343478E-6   -1.124396599723794E-5    2.467775111721039E-5    7.587920624045322E-6    9.610570461311106E-1   -2.613684824149075E-1
 5.484848484848485E9    -6.072532006871485E-1   -5.845529369340668E-2   -1.154832139660564E-5    1.513472724073277E-5   -3.666862494990083E-5    1.893919391253115E-5    9.684394915248605E-1   -2.732898957508663E-1
 5.606060606060606E9    -2.483787962179426E-1    5.375635493623721E-1    7.180113142203061E-5    1.795069412245606E-5    6.717688183286710E-5    3.590589135193740E-5    9.676081256477884E-1   -2.910619939213796E-1
 5.727272727272728E9     3.151528469083543E-1    4.569374831540193E-1    8.302706697916970E-6   -9.875695677716169E-6   -4.172740681453525E-6   -4.720660475684696E-5    9.596007331835593E-1   -2.808164459164653E-1
 5.848484848484849E9     2.916579179218480E-1    1.433223295519686E-1    4.080868140508318E-5   -9.525873548679416E-5    5.997251561426351E-5   -2.394630363066373E-5    9.615765015918928E-1   -3.053120803891632E-1
 5.969696969696970E9     4.946888522357266E-1    3.068624665700145E-1   -5.968194437089810E-5    1.000066345190102E-4   -5.328956445616198E-5    8.624015597773310E-5    9.608003246701816E-1   -2.955656385654781E-1
 6.090909090909091E9     7.488095655366309E-1   -8.350973331397471E-2    6.069446638914747E-5    9.902280254824143E-6    4.002964397721929E-5   -1.723702304771888E-7    9.616364886689450E-1   -3.036293474067315E-1
 6.212121212121212E9     6.030528509035283E-1   -5.064624040292226E-1    1.508911015822034E-5   -1.129964825765712E-5    1.991832774655955E-5    8.249805467526182E-6    9.550071590693106E-1   -3.185610088348907E-1
 6.333333333333334E9     2.185642929502292E-1   -7.310281053663469E-1   -2.380158546819001E-5   -8.187940607908347E-5    2.293094831544624E-5   -1.888194515434700E-5    9.619765048620817E-1   -3.117035795951012E-1
 6.454545454545455E9    -2.560974344727994E-1   -6.377293302634901E-1   -6.328573693236955E-5    1.285883656466630E-5   -4.858952815246406E-5    1.193996096679234E-5    9.489998896726952E-1   -3.379572398359877E-1
 6.575757575757576E9    -4.998365158488179E-1   -1.382899673944177E-1   -7.882215148785995E-5    3.138133740273206E-5   -6.525340428117614E-5    4.117524891985690E-5    9.550109560542969E-1   -3.321323545102582E-1
 6.696969696969697E9    -1.042465734780662E-1    2.372873657778914E-1    6.674383213221476E-5    6.711903842323838E-5    9.626849162031823E-5    7.394091657191868E-5    9.525290285560875E-1   -3.440173400173991E-1
 6.818181818181818E9     2.104045214083009E-1    4.101419932030209E-2    6.314254982384861E-5    2.330523483280880E-5    7.371544413316997E-5    2.251128465644033E-6    9.419960932814798E-1   -3.558292404032644E-1
 6.939393939393940E9     3.634960858786292E-2   -1.816353965372092E-1    3.464032295116881E-5   -2.140933957678978E-5    4.911152376892906E-5   -1.115619418969466E-5    9.518218584522934E-1   -3.602143283285734E-1
 7.060606060606061E9     3.763146082285735E-2    1.111104856752436E-1   -1.314648548034639E-5   -1.112297446098014E-4    9.034231842096499E-5    7.455501703195603E-5    9.346080492446019E-1   -3.729071218541475E-1
 7.181818181818182E9     4.486883048754136E-1   -5.934017648950329E-2   -8.350819276142343E-5    3.635528124855163E-5    1.544460664318549E-5   -1.158191456141191E-4    9.391018008904607E-1   -3.777954676110350E-1
 7.303030303030303E9     3.512300734753829E-1   -5.204607946952012E-1    5.407328055707610E-5    4.263688696319306E-5   -4.413453912072396E-5    1.263051563526781E-5    9.348071854111841E-1   -3.866535777826157E-1
 7.424242424242425E9    -1.836721962990704E-2   -6.931953428374106E-1    2.471571557297898E-6   -1.304781671825370E-5    4.903620347671686E-5    2.024504879142198E-5    9.256946397069418E-1   -3.922092136193083E-1
 7.545454545454546E9    -4.191397307063961E-1   -5.623152247949603E-1    5.743021677747844E-5    2.551532721530863E-5   -2.193844954854160E-5    1.822255794669449E-5    9.302196403407851E-1   -4.028925665710139E-1
 7.666666666666667E9    -5.809524725793916E-1   -1.533409332647699E-1    4.226727080141967E-5   -2.889170430572606E-5    7.640319287665783E-6    5.293631209877188E-5    9.184539845360247E-1   -4.077434001893305E-1
 7.787878787878788E9    -2.232629184668715E-1    1.429867161195573E-1   -1.800673108384913E-5   -4.878844379899278E-5    1.599346954496703E-5    7.192986371788852E-6    9.177743090910936E-1   -4.171487020390909E-1
 7.909090909090909E9    -1.539312028095567E-1   -2.354727168088162E-1   -9.495587727157310E-5    2.293047237440999E-5    3.779903007472062E-5   -4.398658244274262E-5    9.137839752422431E-1   -4.244330291099532E-1
 8.030303030303031E9    -4.821953052919835E-1   -2.390092307184438E-2    6.253611430054830E-5    6.838475212639414E-5    3.350148837094616E-5    4.537445127646381E-5    9.063452374005999E-1   -4.309457129657952E-1
 8.151515151515152E9    -2.145222980938156E-1    3.280934759842807E-1    1.014451767475114E-4   -4.144034383535675E-5    2.277582455442739E-5   -4.336567433336458E-5    9.061994946093641E-1   -4.415718434320193E-1
 8.272727272727273E9     1.656224684855103E-1    4.762099026719640E-2    3.258255429957237E-5   -6.816474574770741E-5   -2.349532346326962E-5   -2.008846385831834E-5    8.987313492288787E-1   -4.465828297432307E-1
 8.393939393939394E9    -7.647158262429619E-2   -1.338390887789017E-1    5.944038782619669E-6   -8.381923190630832E-5    6.012107726848004E-6    5.960620416157116E-5    8.952853183751108E-1   -4.557994633079705E-1
 8.515151515151516E9     1.181236026472585E-4   -2.318841768473586E-1   -1.251239606658250E-4   -1.956806100722805E-6    8.112852389681836E-5   -6.617173306085655E-5    8.907330459312858E-1   -4.643078823664178E-1
 8.636363636363636E9    -3.333101090286568E-1   -3.938743923709531E-1    5.753389234028872E-5    6.520833692711231E-5   -7.099888486862758E-5   -1.591092410326091E-5    8.853334831405760E-1   -4.703181111462799E-1
 8.757575757575758E9    -6.312358143673856E-1   -1.593948638732467E-1    2.391411145445462E-5   -2.792273631309264E-5    6.264823459722747E-5    6.107306509453266E-5    8.824744560017694E-1   -4.807437397086353E-1
 8.878787878787880E9    -6.749647162580951E-1    1.884779396085914E-1   -2.709751815827212E-5    2.292076226848528E-5    2.343635657822268E-5   -4.408339080708737E-5    8.764754193178746E-1   -4.874330238896460E-1
 9.000000000000000E9    -5.031087510134521E-1    4.737750453412968E-1    5.998349136526676E-5   -7.372943933921765E-6   -5.406854558100310E-5    6.184458063034972E-5    8.713946773516061E-1   -4.974487257140446E-1
 9.121212121212122E9    -1.912522613592954E-1    5.792742622940933E-1    4.092681470376034E-7   -1.945233673692136E-5    7.142196554328295E-5    9.146087850944447E-5    8.663091938951339E-1   -5.055920791204709E-1
 9.242424242424244E9     5.938035151608012E-2    4.249866992547597E-1    3.273742915397377E-5    5.954109138014125E-5    1.200691739382960E-4    5.069784927675762E-5    8.610733543174759E-1   -5.127688231480203E-1
 9.363636363636364E9     1.058425641724974E-1    2.673554530793596E-1    4.373078646574898E-5    1.529088769874886E-5    1.234855700354506E-4   -9.460961501538343E-5    8.567341766946323E-1   -5.222460719875945E-1
 9.484848484848484E9     1.201130056187397E-1    2.701544729178453E-2    9.483425666844722E-5   -6.329480864049442E-5    1.778471712368311E-5   -1.703320854091803E-4    8.509894354823728E-1   -5.304512146140323E-1
 9.606060606060606E9    -2.206094265793596E-1   -8.498246442463601E-2    1.729536482569711E-5   -2.026793975308890E-4   -1.062050926269624E-4   -1.528073902095704E-4    8.462626083107357E-1   -5.386392074845494E-1
 9.727272727272728E9    -4.096360474712209E-1    2.159660932179937E-1   -1.061480617837997E-4   -2.650541286158992E-5   -1.451583989234155E-4   -1.884396547120963E-6    8.398005882641132E-1   -5.484100700976113E-1
 9.848484848484848E9    -2.656409744766190E-1    4.564392129088993E-1   -1.465602519761358E-5    5.920566806886993E-5   -7.727637050916730E-5    6.231173398953065E-6    8.347009430426900E-1   -5.561298485933328E-1
 9.969696969696970E9    -9.432405990373768E-2    5.201204958491287E-1    1.108138447474457E-4    7.339043869362557E-6    1.220954780865303E-5    9.551660614356785E-5    8.287654799201895E-1   -5.655823427974369E-1
 1.009090909090909E+10   1.032216729851368E-1    4.554821733579056E-1    4.981015565398903E-5   -2.006207465587987E-4    5.876796051901138E-5   -7.073261885204807E-5    8.233289816065561E-1   -5.743231682360995E-1
 1.021212121212121E+10   3.405338469949069E-2    2.955058363225016E-1   -1.668432308949960E-4   -9.770290954110904E-5   -7.393631633184232E-5   -9.634142743403888E-5    8.174885516248889E-1   -5.835605855068364E-1
 1.033333333333333E+10  -2.171086710106244E-2    4.764103999876320E-1   -4.774454040530848E-5    7.777389751786481E-5   -4.577340366158134E-5    1.027968833262736E-4    8.118784196670488E-1   -5.909859202579785E-1
 1.045454545454546E+10   2.014544824459103E-1    5.517313108011871E-1   -4.051786518220919E-6    1.915069504470711E-5    4.220316898258840E-5   -8.485398615763245E-5    8.058002268584917E-1   -6.010727660032783E-1
 1.057575757575758E+10   3.713219032908948E-1    4.438390872104089E-1    4.658384180445843E-5    1.225360471006678E-6   -2.438923073991316E-5    2.781713117027154E-5    7.981829910052494E-1   -6.087064647781467E-1
 1.069696969696970E+10   4.861762165493436E-1    2.557488682388691E-1    4.996720276011055E-5   -1.003499849592306E-4   -7.416438110681149E-5   -9.032719357102399E-5    7.937576094862613E-1   -6.180471582893754E-1
 1.081818181818182E+10   3.908931405502475E-1   -2.678784587190732E-2   -1.338641904254447E-4   -6.391056027528870E-5   -5.578911710706798E-5    9.320099901699429E-5    7.871648937820742E-1   -6.258233380595181E-1
 1.093939393939394E+10   2.996954199808363E-2   -3.995667783220384E-2   -7.265086416225677E-5    1.284030509690440E-5    1.849662131012893E-4    4.389052904245198E-5    7.824752549866465E-1   -6.310159364715885E-1
 1.106060606060606E+10  -5.146472004142150E-2    3.219737282651945E-1    7.607402023325633E-7    6.083021956208573E-5   -7.172181117782238E-5   -2.882107141626008E-4    7.759178478142963E-1   -6.462780664757860E-1
 1.118181818181818E+10   2.169742670691761E-1    4.989228424417008E-1    8.073722640043600E-6   -1.393438431875669E-5   -3.190395020785407E-4    2.087267545527822E-5    7.740544734924557E-1   -6.483919705216662E-1
 1.130303030303030E+10   4.629432075538024E-1    4.176424396058497E-1   -3.139951019625416E-5   -3.900761338253541E-5   -2.058036394764766E-5    1.572845152268414E-4    7.645146344601979E-1   -6.649070358586505E-1
 1.142424242424242E+10   5.840398958612212E-1    2.768172373174482E-1   -1.256086176943603E-5    1.462677262221959E-5    3.019339343980960E-5   -1.295274266000451E-5    7.588959637061335E-1   -6.726608760129772E-1
 1.154545454545455E+10   6.753767247295606E-1    8.937700990234811E-2   -5.202009984172294E-5   -5.851488076533793E-5    4.732660222628051E-5    3.160984547788738E-5    7.554727631136638E-1   -6.842138978568127E-1
 1.166666666666667E+10   6.360023985254962E-1   -1.433549084605598E-1   -6.114313280566711E-5   -5.128556512352422E-5   -7.550877467552358E-5   -9.287782481243651E-6    7.419404396105255E-1   -6.934479277347955E-1
 1.178787878787879E+10   4.723358697689449E-1   -2.902206170640818E-1   -1.645182262401537E-4   -2.273977982061217E-5   -3.715943327743026E-5    1.163107882070553E-4    7.393827404206887E-1   -7.039911467972764E-1
 1.190909090909091E+10   2.820765590106957E-1   -3.092134684034596E-1   -9.821291248571196E-5    1.197112475547472E-4    4.835662877253229E-5   -2.070164279304441E-6    7.284920639227783E-1   -7.131005047451705E-1
